           * c:\users\admin\esim-workspace\priencoder\priencoder.cir
           Transient Analysis  Sat May 15 21:55:02  2021
--------------------------------------------------------------------------------
Index   time            net-_r1-pad1_   net-_r1-pad2_   net-_r2-pad2_   
--------------------------------------------------------------------------------
0	0.000000e+000	0.000000e+000	0.000000e+000	0.000000e+000	
1	1.000000e-014	0.000000e+000	5.000000e-002	5.000000e-002	
2	2.000000e-014	0.000000e+000	1.000000e-001	1.000000e-001	
3	4.000000e-014	0.000000e+000	2.000000e-001	2.000000e-001	
4	8.000000e-014	0.000000e+000	4.000000e-001	4.000000e-001	
5	1.600000e-013	0.000000e+000	8.000000e-001	8.000000e-001	
6	3.200000e-013	0.000000e+000	1.600000e+000	1.600000e+000	
7	6.400000e-013	0.000000e+000	3.200000e+000	3.200000e+000	
8	1.000000e-012	-8.88178e-016	5.000000e+000	5.000000e+000	
9	1.064000e-012	-8.88178e-016	5.000000e+000	5.000000e+000	
10	1.192000e-012	-8.88178e-016	5.000000e+000	5.000000e+000	
11	1.448000e-012	-8.88178e-016	5.000000e+000	5.000000e+000	
12	1.960000e-012	-8.88178e-016	5.000000e+000	5.000000e+000	
13	2.984000e-012	-8.88178e-016	5.000000e+000	5.000000e+000	
14	5.032000e-012	-8.88178e-016	5.000000e+000	5.000000e+000	
15	9.128000e-012	-8.88178e-016	5.000000e+000	5.000000e+000	
16	1.732000e-011	-8.88178e-016	5.000000e+000	5.000000e+000	
17	3.370400e-011	-8.88178e-016	5.000000e+000	5.000000e+000	
18	6.647200e-011	-8.88178e-016	5.000000e+000	5.000000e+000	
19	1.320080e-010	-8.88178e-016	5.000000e+000	5.000000e+000	
20	2.630800e-010	-8.88178e-016	5.000000e+000	5.000000e+000	
21	5.252240e-010	-8.88178e-016	5.000000e+000	5.000000e+000	
22	1.049512e-009	-8.88178e-016	5.000000e+000	5.000000e+000	
23	2.049512e-009	-8.88178e-016	5.000000e+000	5.000000e+000	
24	3.049512e-009	-8.88178e-016	5.000000e+000	5.000000e+000	
25	4.049512e-009	-8.88178e-016	5.000000e+000	5.000000e+000	
26	5.001000e-009	-8.88178e-016	5.000000e+000	5.000000e+000	
27	5.001100e-009	-8.88178e-016	4.500000e+000	5.000000e+000	
28	5.001300e-009	-4.44089e-016	3.500000e+000	5.000000e+000	
29	5.001700e-009	-2.22045e-016	1.500000e+000	5.000000e+000	
30	5.002000e-009	0.000000e+000	0.000000e+000	5.000000e+000	
31	5.002080e-009	0.000000e+000	0.000000e+000	5.000000e+000	
32	5.002240e-009	0.000000e+000	0.000000e+000	5.000000e+000	
33	5.002560e-009	0.000000e+000	0.000000e+000	5.000000e+000	
34	5.003200e-009	0.000000e+000	0.000000e+000	5.000000e+000	
35	5.004480e-009	0.000000e+000	0.000000e+000	5.000000e+000	
36	5.007040e-009	0.000000e+000	0.000000e+000	5.000000e+000	
37	5.012160e-009	0.000000e+000	0.000000e+000	5.000000e+000	
38	5.022400e-009	0.000000e+000	0.000000e+000	5.000000e+000	
39	5.042880e-009	0.000000e+000	0.000000e+000	5.000000e+000	
40	5.083840e-009	0.000000e+000	0.000000e+000	5.000000e+000	
41	5.165760e-009	0.000000e+000	0.000000e+000	5.000000e+000	
42	5.329600e-009	0.000000e+000	0.000000e+000	5.000000e+000	
43	5.657280e-009	0.000000e+000	0.000000e+000	5.000000e+000	
44	6.312640e-009	0.000000e+000	0.000000e+000	5.000000e+000	
45	7.312640e-009	0.000000e+000	0.000000e+000	5.000000e+000	
46	8.312640e-009	0.000000e+000	0.000000e+000	5.000000e+000	
47	9.312640e-009	0.000000e+000	0.000000e+000	5.000000e+000	
48	1.000000e-008	0.000000e+000	0.000000e+000	5.000000e+000	
49	1.000010e-008	0.000000e+000	5.000000e-001	5.000000e+000	
50	1.000030e-008	-2.22045e-016	1.500000e+000	5.000000e+000	
51	1.000070e-008	-4.44089e-016	3.500000e+000	5.000000e+000	
52	1.000100e-008	8.881784e-016	5.000000e+000	5.000000e+000	
53	1.000108e-008	-8.88178e-016	5.000000e+000	4.600000e+000	
54	1.000124e-008	-8.88178e-016	5.000000e+000	3.800000e+000	

Index   time            net-_r1-pad1_   net-_r1-pad2_   net-_r2-pad2_   
--------------------------------------------------------------------------------
55	1.000156e-008	-8.88178e-016	5.000000e+000	2.200000e+000	
56	1.000200e-008	-8.88178e-016	5.000000e+000	-8.88178e-016	
57	1.000206e-008	-8.88178e-016	5.000000e+000	-8.88178e-016	
58	1.000219e-008	-8.88178e-016	5.000000e+000	-8.88178e-016	
59	1.000245e-008	-8.88178e-016	5.000000e+000	-8.88178e-016	
60	1.000296e-008	-8.88178e-016	5.000000e+000	-8.88178e-016	
61	1.000398e-008	-8.88178e-016	5.000000e+000	-8.88178e-016	
62	1.000603e-008	-8.88178e-016	5.000000e+000	-8.88178e-016	
63	1.001013e-008	-8.88178e-016	5.000000e+000	-8.88178e-016	
64	1.001832e-008	-8.88178e-016	5.000000e+000	-8.88178e-016	
65	1.003470e-008	-8.88178e-016	5.000000e+000	-8.88178e-016	
66	1.006747e-008	-8.88178e-016	5.000000e+000	-8.88178e-016	
67	1.013301e-008	-8.88178e-016	5.000000e+000	-8.88178e-016	
68	1.026408e-008	-8.88178e-016	5.000000e+000	-8.88178e-016	
69	1.052622e-008	-8.88178e-016	5.000000e+000	-8.88178e-016	
70	1.105051e-008	-8.88178e-016	5.000000e+000	-8.88178e-016	
71	1.205051e-008	-8.88178e-016	5.000000e+000	-8.88178e-016	
72	1.305051e-008	-8.88178e-016	5.000000e+000	-8.88178e-016	
73	1.405051e-008	-8.88178e-016	5.000000e+000	-8.88178e-016	
74	1.500100e-008	-8.88178e-016	5.000000e+000	-8.88178e-016	
75	1.500110e-008	0.000000e+000	4.500000e+000	0.000000e+000	
76	1.500130e-008	-8.88178e-016	3.500000e+000	-8.88178e-016	
77	1.500170e-008	0.000000e+000	1.500000e+000	0.000000e+000	
78	1.500200e-008	0.000000e+000	0.000000e+000	0.000000e+000	
79	1.500208e-008	0.000000e+000	0.000000e+000	0.000000e+000	
80	1.500224e-008	0.000000e+000	0.000000e+000	0.000000e+000	
81	1.500256e-008	0.000000e+000	0.000000e+000	0.000000e+000	
82	1.500320e-008	0.000000e+000	0.000000e+000	0.000000e+000	
83	1.500448e-008	0.000000e+000	0.000000e+000	0.000000e+000	
84	1.500704e-008	0.000000e+000	0.000000e+000	0.000000e+000	
85	1.501216e-008	0.000000e+000	0.000000e+000	0.000000e+000	
86	1.502240e-008	0.000000e+000	0.000000e+000	0.000000e+000	
87	1.504288e-008	0.000000e+000	0.000000e+000	0.000000e+000	
88	1.508384e-008	0.000000e+000	0.000000e+000	0.000000e+000	
89	1.516576e-008	0.000000e+000	0.000000e+000	0.000000e+000	
90	1.532960e-008	0.000000e+000	0.000000e+000	0.000000e+000	
91	1.565728e-008	0.000000e+000	0.000000e+000	0.000000e+000	
92	1.631264e-008	0.000000e+000	0.000000e+000	0.000000e+000	
93	1.731264e-008	0.000000e+000	0.000000e+000	0.000000e+000	
94	1.831264e-008	0.000000e+000	0.000000e+000	0.000000e+000	
95	1.931264e-008	0.000000e+000	0.000000e+000	0.000000e+000	
96	2.000000e-008	0.000000e+000	0.000000e+000	0.000000e+000	
97	2.000010e-008	0.000000e+000	5.000000e-001	5.000000e-001	
98	2.000030e-008	-2.22045e-016	1.500000e+000	1.500000e+000	
99	2.000070e-008	-4.44089e-016	3.500000e+000	3.500000e+000	
100	2.000100e-008	-8.88178e-016	5.000000e+000	5.000000e+000	
101	2.000108e-008	-8.88178e-016	5.000000e+000	5.000000e+000	
102	2.000124e-008	-8.88178e-016	5.000000e+000	5.000000e+000	
103	2.000156e-008	-8.88178e-016	5.000000e+000	5.000000e+000	
104	2.000220e-008	-8.88178e-016	5.000000e+000	5.000000e+000	
105	2.000348e-008	-8.88178e-016	5.000000e+000	5.000000e+000	
106	2.000604e-008	-8.88178e-016	5.000000e+000	5.000000e+000	
107	2.001116e-008	-8.88178e-016	5.000000e+000	5.000000e+000	
108	2.002140e-008	-8.88178e-016	5.000000e+000	5.000000e+000	
109	2.004188e-008	-8.88178e-016	5.000000e+000	5.000000e+000	
110	2.008284e-008	-8.88178e-016	5.000000e+000	5.000000e+000	
111	2.016476e-008	-8.88178e-016	5.000000e+000	5.000000e+000	
112	2.032860e-008	-8.88178e-016	5.000000e+000	5.000000e+000	

Index   time            net-_r1-pad1_   net-_r1-pad2_   net-_r2-pad2_   
--------------------------------------------------------------------------------
113	2.065628e-008	-8.88178e-016	5.000000e+000	5.000000e+000	
114	2.131164e-008	-8.88178e-016	5.000000e+000	5.000000e+000	
115	2.231164e-008	-8.88178e-016	5.000000e+000	5.000000e+000	
116	2.331164e-008	-8.88178e-016	5.000000e+000	5.000000e+000	
117	2.431164e-008	-8.88178e-016	5.000000e+000	5.000000e+000	
118	2.500100e-008	0.000000e+000	5.000000e+000	5.000000e+000	
119	2.500110e-008	-8.88178e-016	4.500000e+000	5.000000e+000	
120	2.500130e-008	0.000000e+000	3.500000e+000	5.000000e+000	
121	2.500170e-008	0.000000e+000	1.500000e+000	5.000000e+000	
122	2.500200e-008	0.000000e+000	0.000000e+000	5.000000e+000	
123	2.500208e-008	0.000000e+000	0.000000e+000	5.000000e+000	
124	2.500224e-008	0.000000e+000	0.000000e+000	5.000000e+000	
125	2.500256e-008	0.000000e+000	0.000000e+000	5.000000e+000	
126	2.500320e-008	0.000000e+000	0.000000e+000	5.000000e+000	
127	2.500448e-008	0.000000e+000	0.000000e+000	5.000000e+000	
128	2.500704e-008	0.000000e+000	0.000000e+000	5.000000e+000	
129	2.501216e-008	0.000000e+000	0.000000e+000	5.000000e+000	
130	2.502240e-008	0.000000e+000	0.000000e+000	5.000000e+000	
131	2.504288e-008	0.000000e+000	0.000000e+000	5.000000e+000	
132	2.508384e-008	0.000000e+000	0.000000e+000	5.000000e+000	
133	2.516576e-008	0.000000e+000	0.000000e+000	5.000000e+000	
134	2.532960e-008	0.000000e+000	0.000000e+000	5.000000e+000	
135	2.565728e-008	0.000000e+000	0.000000e+000	5.000000e+000	
136	2.631264e-008	0.000000e+000	0.000000e+000	5.000000e+000	
137	2.731264e-008	0.000000e+000	0.000000e+000	5.000000e+000	
138	2.831264e-008	0.000000e+000	0.000000e+000	5.000000e+000	
139	2.931264e-008	0.000000e+000	0.000000e+000	5.000000e+000	
140	3.000000e-008	0.000000e+000	0.000000e+000	5.000000e+000	
141	3.000010e-008	0.000000e+000	5.000000e-001	5.000000e+000	
142	3.000030e-008	0.000000e+000	1.500000e+000	5.000000e+000	
143	3.000070e-008	0.000000e+000	3.500000e+000	5.000000e+000	
144	3.000100e-008	-8.88178e-016	5.000000e+000	5.000000e+000	
145	3.000108e-008	-8.88178e-016	5.000000e+000	4.600000e+000	
146	3.000124e-008	-8.88178e-016	5.000000e+000	3.800000e+000	
147	3.000156e-008	-8.88178e-016	5.000000e+000	2.200000e+000	
148	3.000200e-008	-8.88178e-016	5.000000e+000	-8.88178e-016	
149	3.000206e-008	-8.88178e-016	5.000000e+000	-8.88178e-016	
150	3.000219e-008	-8.88178e-016	5.000000e+000	-8.88178e-016	
151	3.000245e-008	-8.88178e-016	5.000000e+000	-8.88178e-016	
152	3.000296e-008	-8.88178e-016	5.000000e+000	-8.88178e-016	
153	3.000398e-008	-8.88178e-016	5.000000e+000	-8.88178e-016	
154	3.000603e-008	-8.88178e-016	5.000000e+000	-8.88178e-016	
155	3.001013e-008	-8.88178e-016	5.000000e+000	-8.88178e-016	
156	3.001832e-008	-8.88178e-016	5.000000e+000	-8.88178e-016	
157	3.003470e-008	-8.88178e-016	5.000000e+000	-8.88178e-016	
158	3.006747e-008	-8.88178e-016	5.000000e+000	-8.88178e-016	
159	3.013301e-008	-8.88178e-016	5.000000e+000	-8.88178e-016	
160	3.026408e-008	-8.88178e-016	5.000000e+000	-8.88178e-016	
161	3.052622e-008	-8.88178e-016	5.000000e+000	-8.88178e-016	
162	3.105051e-008	-8.88178e-016	5.000000e+000	-8.88178e-016	
163	3.205051e-008	-8.88178e-016	5.000000e+000	-8.88178e-016	
164	3.305051e-008	-8.88178e-016	5.000000e+000	-8.88178e-016	
165	3.405051e-008	-8.88178e-016	5.000000e+000	-8.88178e-016	
166	3.500100e-008	0.000000e+000	5.000000e+000	0.000000e+000	
167	3.500110e-008	-8.88178e-016	4.500000e+000	-8.88178e-016	
168	3.500130e-008	0.000000e+000	3.500000e+000	0.000000e+000	
169	3.500170e-008	-2.22045e-016	1.500000e+000	-2.22045e-016	
170	3.500200e-008	0.000000e+000	0.000000e+000	0.000000e+000	

Index   time            net-_r1-pad1_   net-_r1-pad2_   net-_r2-pad2_   
--------------------------------------------------------------------------------
171	3.500208e-008	0.000000e+000	0.000000e+000	0.000000e+000	
172	3.500224e-008	0.000000e+000	0.000000e+000	0.000000e+000	
173	3.500256e-008	0.000000e+000	0.000000e+000	0.000000e+000	
174	3.500320e-008	0.000000e+000	0.000000e+000	0.000000e+000	
175	3.500448e-008	0.000000e+000	0.000000e+000	0.000000e+000	
176	3.500704e-008	0.000000e+000	0.000000e+000	0.000000e+000	
177	3.501216e-008	0.000000e+000	0.000000e+000	0.000000e+000	
178	3.502240e-008	0.000000e+000	0.000000e+000	0.000000e+000	
179	3.504288e-008	0.000000e+000	0.000000e+000	0.000000e+000	
180	3.508384e-008	0.000000e+000	0.000000e+000	0.000000e+000	
181	3.516576e-008	0.000000e+000	0.000000e+000	0.000000e+000	
182	3.532960e-008	0.000000e+000	0.000000e+000	0.000000e+000	
183	3.565728e-008	0.000000e+000	0.000000e+000	0.000000e+000	
184	3.631264e-008	0.000000e+000	0.000000e+000	0.000000e+000	
185	3.731264e-008	0.000000e+000	0.000000e+000	0.000000e+000	
186	3.831264e-008	0.000000e+000	0.000000e+000	0.000000e+000	
187	3.931264e-008	0.000000e+000	0.000000e+000	0.000000e+000	
188	4.000000e-008	0.000000e+000	0.000000e+000	0.000000e+000	
189	4.000010e-008	0.000000e+000	5.000000e-001	5.000000e-001	
190	4.000030e-008	0.000000e+000	1.500000e+000	1.500000e+000	
191	4.000070e-008	0.000000e+000	3.500000e+000	3.500000e+000	
192	4.000100e-008	-8.88178e-016	5.000000e+000	5.000000e+000	
193	4.000108e-008	-8.88178e-016	5.000000e+000	5.000000e+000	
194	4.000124e-008	-8.88178e-016	5.000000e+000	5.000000e+000	
195	4.000156e-008	-8.88178e-016	5.000000e+000	5.000000e+000	
196	4.000220e-008	-8.88178e-016	5.000000e+000	5.000000e+000	
197	4.000348e-008	-8.88178e-016	5.000000e+000	5.000000e+000	
198	4.000604e-008	-8.88178e-016	5.000000e+000	5.000000e+000	
199	4.001116e-008	-8.88178e-016	5.000000e+000	5.000000e+000	
200	4.002140e-008	-8.88178e-016	5.000000e+000	5.000000e+000	
201	4.004188e-008	-8.88178e-016	5.000000e+000	5.000000e+000	
202	4.008284e-008	-8.88178e-016	5.000000e+000	5.000000e+000	
203	4.016476e-008	-8.88178e-016	5.000000e+000	5.000000e+000	
204	4.032860e-008	-8.88178e-016	5.000000e+000	5.000000e+000	
205	4.065628e-008	-8.88178e-016	5.000000e+000	5.000000e+000	
206	4.131164e-008	-8.88178e-016	5.000000e+000	5.000000e+000	
207	4.231164e-008	-8.88178e-016	5.000000e+000	5.000000e+000	
208	4.331164e-008	-8.88178e-016	5.000000e+000	5.000000e+000	
209	4.431164e-008	-8.88178e-016	5.000000e+000	5.000000e+000	
210	4.500100e-008	0.000000e+000	5.000000e+000	5.000000e+000	
211	4.500110e-008	-8.88178e-016	4.500000e+000	5.000000e+000	
212	4.500130e-008	0.000000e+000	3.500000e+000	5.000000e+000	
213	4.500170e-008	-2.22045e-016	1.500000e+000	5.000000e+000	
214	4.500200e-008	0.000000e+000	0.000000e+000	5.000000e+000	
215	4.500208e-008	0.000000e+000	0.000000e+000	5.000000e+000	
216	4.500224e-008	0.000000e+000	0.000000e+000	5.000000e+000	
217	4.500256e-008	0.000000e+000	0.000000e+000	5.000000e+000	
218	4.500320e-008	0.000000e+000	0.000000e+000	5.000000e+000	
219	4.500448e-008	0.000000e+000	0.000000e+000	5.000000e+000	
220	4.500704e-008	0.000000e+000	0.000000e+000	5.000000e+000	
221	4.501216e-008	0.000000e+000	0.000000e+000	5.000000e+000	
222	4.502240e-008	0.000000e+000	0.000000e+000	5.000000e+000	
223	4.504288e-008	0.000000e+000	0.000000e+000	5.000000e+000	
224	4.508384e-008	0.000000e+000	0.000000e+000	5.000000e+000	
225	4.516576e-008	0.000000e+000	0.000000e+000	5.000000e+000	
226	4.532960e-008	0.000000e+000	0.000000e+000	5.000000e+000	
227	4.565728e-008	0.000000e+000	0.000000e+000	5.000000e+000	
228	4.631264e-008	0.000000e+000	0.000000e+000	5.000000e+000	

Index   time            net-_r1-pad1_   net-_r1-pad2_   net-_r2-pad2_   
--------------------------------------------------------------------------------
229	4.731264e-008	0.000000e+000	0.000000e+000	5.000000e+000	
230	4.831264e-008	0.000000e+000	0.000000e+000	5.000000e+000	
231	4.931264e-008	0.000000e+000	0.000000e+000	5.000000e+000	
232	5.000000e-008	0.000000e+000	0.000000e+000	5.000000e+000	
233	5.000010e-008	0.000000e+000	5.000000e-001	5.000000e+000	
234	5.000030e-008	0.000000e+000	1.500000e+000	5.000000e+000	
235	5.000070e-008	0.000000e+000	3.500000e+000	5.000000e+000	
236	5.000100e-008	-8.88178e-016	5.000000e+000	5.000000e+000	
237	5.000108e-008	-8.88178e-016	5.000000e+000	4.600000e+000	
238	5.000124e-008	-8.88178e-016	5.000000e+000	3.800000e+000	
239	5.000156e-008	-8.88178e-016	5.000000e+000	2.200000e+000	
240	5.000200e-008	-8.88178e-016	5.000000e+000	-8.88178e-016	
241	5.000206e-008	-8.88178e-016	5.000000e+000	-8.88178e-016	
242	5.000219e-008	-8.88178e-016	5.000000e+000	-8.88178e-016	
243	5.000245e-008	-8.88178e-016	5.000000e+000	-8.88178e-016	
244	5.000296e-008	-8.88178e-016	5.000000e+000	-8.88178e-016	
245	5.000398e-008	-8.88178e-016	5.000000e+000	-8.88178e-016	
246	5.000603e-008	-8.88178e-016	5.000000e+000	-8.88178e-016	
247	5.001013e-008	-8.88178e-016	5.000000e+000	-8.88178e-016	
248	5.001832e-008	-8.88178e-016	5.000000e+000	-8.88178e-016	
249	5.003470e-008	-8.88178e-016	5.000000e+000	-8.88178e-016	
250	5.006747e-008	-8.88178e-016	5.000000e+000	-8.88178e-016	
251	5.013301e-008	-8.88178e-016	5.000000e+000	-8.88178e-016	
252	5.026408e-008	-8.88178e-016	5.000000e+000	-8.88178e-016	
253	5.052622e-008	-8.88178e-016	5.000000e+000	-8.88178e-016	
254	5.105051e-008	-8.88178e-016	5.000000e+000	-8.88178e-016	
255	5.205051e-008	-8.88178e-016	5.000000e+000	-8.88178e-016	
256	5.305051e-008	-8.88178e-016	5.000000e+000	-8.88178e-016	
257	5.405051e-008	-8.88178e-016	5.000000e+000	-8.88178e-016	
258	5.500100e-008	0.000000e+000	5.000000e+000	0.000000e+000	
259	5.500110e-008	-8.88178e-016	4.500000e+000	-8.88178e-016	
260	5.500130e-008	0.000000e+000	3.500000e+000	0.000000e+000	
261	5.500170e-008	-2.22045e-016	1.500000e+000	-2.22045e-016	
262	5.500200e-008	0.000000e+000	0.000000e+000	0.000000e+000	
263	5.500208e-008	0.000000e+000	0.000000e+000	0.000000e+000	
264	5.500224e-008	0.000000e+000	0.000000e+000	0.000000e+000	
265	5.500256e-008	0.000000e+000	0.000000e+000	0.000000e+000	
266	5.500320e-008	0.000000e+000	0.000000e+000	0.000000e+000	
267	5.500448e-008	0.000000e+000	0.000000e+000	0.000000e+000	
268	5.500704e-008	0.000000e+000	0.000000e+000	0.000000e+000	
269	5.501216e-008	0.000000e+000	0.000000e+000	0.000000e+000	
270	5.502240e-008	0.000000e+000	0.000000e+000	0.000000e+000	
271	5.504288e-008	0.000000e+000	0.000000e+000	0.000000e+000	
272	5.508384e-008	0.000000e+000	0.000000e+000	0.000000e+000	
273	5.516576e-008	0.000000e+000	0.000000e+000	0.000000e+000	
274	5.532960e-008	0.000000e+000	0.000000e+000	0.000000e+000	
275	5.565728e-008	0.000000e+000	0.000000e+000	0.000000e+000	
276	5.631264e-008	0.000000e+000	0.000000e+000	0.000000e+000	
277	5.731264e-008	0.000000e+000	0.000000e+000	0.000000e+000	
278	5.831264e-008	0.000000e+000	0.000000e+000	0.000000e+000	
279	5.931264e-008	0.000000e+000	0.000000e+000	0.000000e+000	
280	6.000000e-008	0.000000e+000	0.000000e+000	0.000000e+000	
281	6.000010e-008	0.000000e+000	5.000000e-001	5.000000e-001	
282	6.000030e-008	-2.22045e-016	1.500000e+000	1.500000e+000	
283	6.000070e-008	0.000000e+000	3.500000e+000	3.500000e+000	
284	6.000100e-008	-8.88178e-016	5.000000e+000	5.000000e+000	
285	6.000108e-008	-8.88178e-016	5.000000e+000	5.000000e+000	
286	6.000124e-008	-8.88178e-016	5.000000e+000	5.000000e+000	

Index   time            net-_r1-pad1_   net-_r1-pad2_   net-_r2-pad2_   
--------------------------------------------------------------------------------
287	6.000156e-008	-8.88178e-016	5.000000e+000	5.000000e+000	
288	6.000220e-008	-8.88178e-016	5.000000e+000	5.000000e+000	
289	6.000348e-008	-8.88178e-016	5.000000e+000	5.000000e+000	
290	6.000604e-008	-8.88178e-016	5.000000e+000	5.000000e+000	
291	6.001116e-008	-8.88178e-016	5.000000e+000	5.000000e+000	
292	6.002140e-008	-8.88178e-016	5.000000e+000	5.000000e+000	
293	6.004188e-008	-8.88178e-016	5.000000e+000	5.000000e+000	
294	6.008284e-008	-8.88178e-016	5.000000e+000	5.000000e+000	
295	6.016476e-008	-8.88178e-016	5.000000e+000	5.000000e+000	
296	6.032860e-008	-8.88178e-016	5.000000e+000	5.000000e+000	
297	6.065628e-008	-8.88178e-016	5.000000e+000	5.000000e+000	
298	6.131164e-008	-8.88178e-016	5.000000e+000	5.000000e+000	
299	6.231164e-008	-8.88178e-016	5.000000e+000	5.000000e+000	
300	6.331164e-008	-8.88178e-016	5.000000e+000	5.000000e+000	
301	6.431164e-008	-8.88178e-016	5.000000e+000	5.000000e+000	
302	6.500100e-008	0.000000e+000	5.000000e+000	5.000000e+000	
303	6.500110e-008	0.000000e+000	4.500000e+000	5.000000e+000	
304	6.500130e-008	0.000000e+000	3.500000e+000	5.000000e+000	
